
TB77896C0 000:000 SEGGER J-Link V4.74 Log File (0000ms, 0000ms total)
TB77896C0 000:000 DLL Compiled: Jul 17 2013 11:52:31 (0000ms, 0000ms total)
TB77896C0 000:000 Logging started @ 2014-03-25 10:42 (0000ms, 0000ms total)
TB77896C0 000:000 JLINK_SetWarnOutHandler(...) (0000ms, 0000ms total)
TB77896C0 000:000 JLINK_SelectUSB(Port = 0)  returns 0x00 (0000ms, 0000ms total)
TB77896C0 000:000 JLINK_OpenEx(...)
Firmware: J-Link ARM V8 compiled Jul 17 2013 11:24:15
Hardware: V8.00
S/N: 58001139
Feature(s): RDI,FlashDL,FlashBP,JFlash  returns O.K. (0055ms, 0055ms total)
TB77896C0 000:055 JLINK_SetErrorOutHandler(...) (0000ms, 0055ms total)
TB77896C0 000:055 JLINK_EnableLog(...) (0000ms, 0055ms total)
TB77896C0 000:055 JLINK_SetInitRegsOnReset(OFF)  returns 0x01 (0000ms, 0055ms total)
TB77896C0 000:055 JLINK_GetDLLVersion()  returns 47400 (0000ms, 0055ms total)
TB77896C0 000:055 JLINK_GetCompileDateTime() (0000ms, 0055ms total)
TB77896C0 000:055 JLINK_GetFirmwareString(...) (0000ms, 0055ms total)
TB77896C0 000:055 JLINK_GetHardwareVersion()  returns 0x13880 (0000ms, 0055ms total)
TB77896C0 000:055 JLINK_EMU_HasCapEx(0x00000026)  returns 0x00 (0000ms, 0055ms total)
TB77896C0 000:055 JLINK_EMU_GetProductId() (0000ms, 0055ms total)
TB77896C0 000:055 JLINK_GetHardwareVersion()  returns 0x13880 (0000ms, 0055ms total)
TB77896C0 000:055 JLINK_GetFirmwareString(...) (0000ms, 0055ms total)
TB77896C0 000:055 JLINK_GetEmuCaps()  returns 0xB9FF7BBF (0000ms, 0055ms total)
TB77896C0 000:055 JLINK_GetEmuCaps()  returns 0xB9FF7BBF (0000ms, 0055ms total)
TB77896C0 000:055 JLINK_GetHWStatus(...)  returns 0x00 (0003ms, 0058ms total)
TB77896C0 000:059 JLINK_SetSpeed(100) (0000ms, 0059ms total)
TB77896C0 000:059 JLINK_GetEmuCaps()  returns 0xB9FF7BBF (0001ms, 0060ms total)
TB77896C0 000:060 JLINK_TIF_GetAvailable(...) (0002ms, 0062ms total)
TB77896C0 000:062 JLINK_Connect() >0x2F8 JTAG>TotalIRLen = 9, IRPrint = 0x0011 >0x30 JTAG> >0x210 JTAG>  returns 0x00 (0028ms, 0090ms total)
TB77896C0 000:090 JLINK_GetIdData(...) ScanLen=5 NumDevices=2 aId[0]=0x07B76F0F aIrRead[0]=0 aScanLen[0]=5 aScanRead[0]=0 (0000ms, 0090ms total)
TB77896C0 000:090 JLINK_JTAG_GetDeviceID(DeviceIndex = 0)  returns 0x2B900F0F (0000ms, 0090ms total)
TB77896C0 000:090 JLINK_JTAG_GetDeviceInfo(DeviceIndex = 0)  returns 0x00 (0000ms, 0090ms total)
TB77896C0 000:090 JLINK_JTAG_GetDeviceID(DeviceIndex = 1)  returns 0x7B76F0F (0000ms, 0090ms total)
TB77896C0 000:090 JLINK_JTAG_GetDeviceInfo(DeviceIndex = 1)  returns 0x00 (0000ms, 0090ms total)
TB77896C0 000:090 JLINK_GetDeviceFamily()  returns 11 (0000ms, 0090ms total)
TB77896C0 000:090 JLINK_GetDeviceFamily()  returns 11 (0000ms, 0090ms total)
TB77896C0 000:090 JLINK_GetDeviceFamily()  returns 11 (0000ms, 0090ms total)
TB77896C0 000:090 JLINK_GetDeviceFamily()  returns 11 (0000ms, 0090ms total)
TB77896C0 000:090 JLINK_GetDeviceFamily()  returns 11 (0000ms, 0090ms total)
TB77896C0 000:090 JLINK_GetDeviceFamily()  returns 11 (0000ms, 0090ms total)
TB77896C0 000:090 JLINK_GetDeviceFamily()  returns 11 (0000ms, 0090ms total)
TB77896C0 000:090 JLINK_GetDeviceFamily()  returns 11 (0000ms, 0090ms total)
TB77896C0 000:090 JLINK_GetDeviceFamily()  returns 11 (0000ms, 0090ms total)
TB77896C0 000:090 JLINK_GetDeviceFamily()  returns 11 (0000ms, 0090ms total)
TB77896C0 000:090 JLINK_SetSpeed(100) (0000ms, 0090ms total)
TB77896C0 000:091 JLINK_GetHWStatus(...)  returns 0x00 (0003ms, 0094ms total)
TB77896C0 000:094 JLINK_GetSpeedInfo() 48000000 Hz / n, n >= 4 (0000ms, 0094ms total)
TB77896C0 000:094 JLINK_MeasureRTCKReactTime() (0001ms, 0095ms total)
TB77896C0 000:096 JLINK_GetSpeed()  returns 0x64 (0000ms, 0095ms total)
TB77896C0 001:483 JLINK_Halt()  returns 0x00 (0092ms, 0187ms total)
TB77896C0 001:575 JLINK_GetDeviceFamily()  returns 11 (0000ms, 0187ms total)
TB77896C0 001:575 JLINK_ReadReg(CPSR)  returns 0x00000000 (0002ms, 0189ms total)
TB77896C0 001:577 JLINK_ReadReg(R15 (PC))  returns 0x00000000 (0000ms, 0189ms total)
TB77896C0 001:577 JLINK_ReadReg(R7)  returns 0x842209A4 (0000ms, 0189ms total)
TB77896C0 001:577 JLINK_ReadReg(R6)  returns 0x63826418 (0000ms, 0189ms total)
TB77896C0 001:577 JLINK_ReadReg(R5)  returns 0xAD0700D0 (0000ms, 0189ms total)
TB77896C0 001:577 JLINK_ReadReg(R4)  returns 0x7206081C (0000ms, 0189ms total)
TB77896C0 001:577 JLINK_ReadReg(R3)  returns 0x00000000 (0000ms, 0189ms total)
TB77896C0 001:577 JLINK_ReadReg(R2)  returns 0x00000014 (0000ms, 0189ms total)
TB77896C0 001:577 JLINK_ReadReg(R1)  returns 0x782E4410 (0000ms, 0189ms total)
TB77896C0 001:577 JLINK_ReadReg(R0)  returns 0x00000000 (0000ms, 0189ms total)
TB77896C0 001:577 JLINK_ReadReg(R12_USR)  returns 0x8208A052 (0000ms, 0189ms total)
TB77896C0 001:577 JLINK_ReadReg(R11_USR)  returns 0x00000FEC (0000ms, 0189ms total)
TB77896C0 001:577 JLINK_ReadReg(R10_USR)  returns 0x54AB8844 (0000ms, 0189ms total)
TB77896C0 001:577 JLINK_ReadReg(R9_USR)  returns 0xE839B4A8 (0000ms, 0189ms total)
TB77896C0 001:577 JLINK_ReadReg(R8_USR)  returns 0x7A14721A (0000ms, 0189ms total)
TB77896C0 001:577 JLINK_ReadReg(R14_USR)  returns 0x98F12301 (0000ms, 0189ms total)
TB77896C0 001:577 JLINK_ReadReg(R13_USR)  returns 0xC9686820 (0000ms, 0189ms total)
TB77896C0 001:577 JLINK_ReadReg(R12_FIQ)  returns 0x8BCF0245 (0000ms, 0189ms total)
TB77896C0 001:577 JLINK_ReadReg(R11_FIQ)  returns 0x34101E64 (0000ms, 0189ms total)
TB77896C0 001:577 JLINK_ReadReg(R10_FIQ)  returns 0x0A000B47 (0000ms, 0189ms total)
TB77896C0 001:577 JLINK_ReadReg(R9_FIQ)  returns 0x01B56099 (0000ms, 0189ms total)
TB77896C0 001:577 JLINK_ReadReg(R8_FIQ)  returns 0x2B588090 (0000ms, 0189ms total)
TB77896C0 001:577 JLINK_ReadReg(SPSR_FIQ)  returns 0x00000010 (0000ms, 0189ms total)
TB77896C0 001:577 JLINK_ReadReg(R14_FIQ)  returns 0x0E199519 (0000ms, 0189ms total)
TB77896C0 001:577 JLINK_ReadReg(R13_FIQ)  returns 0x4A002056 (0000ms, 0189ms total)
TB77896C0 001:577 JLINK_ReadReg(SPSR_SVC)  returns 0x00000010 (0000ms, 0189ms total)
TB77896C0 001:577 JLINK_ReadReg(R14_SVC)  returns 0xB03FA38A (0000ms, 0189ms total)
TB77896C0 001:577 JLINK_ReadReg(R13_SVC)  returns 0x22943212 (0000ms, 0189ms total)
TB77896C0 001:577 JLINK_ReadReg(SPSR_ABT)  returns 0x00000010 (0000ms, 0189ms total)
TB77896C0 001:577 JLINK_ReadReg(R14_ABT)  returns 0x04D00099 (0000ms, 0189ms total)
TB77896C0 001:577 JLINK_ReadReg(R13_ABT)  returns 0x1A8B2292 (0001ms, 0190ms total)
TB77896C0 001:578 JLINK_ReadReg(SPSR_IRQ)  returns 0x00000010 (0000ms, 0190ms total)
TB77896C0 001:578 JLINK_ReadReg(R14_IRQ)  returns 0x80C000A5 (0000ms, 0190ms total)
TB77896C0 001:578 JLINK_ReadReg(R13_IRQ)  returns 0x0513D41A (0001ms, 0191ms total)
TB77896C0 001:579 JLINK_ReadReg(SPSR_UND)  returns 0x000001DB (0000ms, 0191ms total)
TB77896C0 001:579 JLINK_ReadReg(R14_UND)  returns 0x000000E4 (0000ms, 0191ms total)
TB77896C0 001:579 JLINK_ReadReg(R13_UND)  returns 0x00000FEC (0000ms, 0191ms total)
TB77896C0 037:164 JLINK_IsHalted()  returns TRUE (0004ms, 0195ms total)
TB77896C0 037:168 JLINK_BeginDownload(Flags = 0x00) (0000ms, 0191ms total)
TB77896C0 037:168 JLINK_WriteMem(0x00000000, 0x0234 Bytes, ...) -- Data:  07 02 A0 E3 13 00 80 E3 92 0F 0F EE 01 DA A0 E3 ... -- CPU_WriteMem(564 bytes @ 0x00000000)  returns 0x234 (0277ms, 0468ms total)
TB77896C0 037:445 JLINK_EndDownload()  returns 0x00 (0001ms, 0469ms total)
TB77896C0 039:469 JLINK_IsHalted()  returns TRUE (0004ms, 0473ms total)
TB77896C0 039:473 JLINK_GetDeviceFamily()  returns 11 (0000ms, 0469ms total)
TB77896C0 039:473 JLINK_WriteReg(R15 (PC), 0x00000000)  returns 0x00 (0000ms, 0469ms total)
TB77896C0 039:796 JLINK_GoEx(MaxEmulInsts = 0, Flags = 0x01) (0052ms, 0521ms total)
TB77896C0 049:102 JLINK_IsHalted()  returns FALSE (0003ms, 0524ms total)
TB77896C0 050:921 JLINK_Halt()  returns 0x00 (0103ms, 0624ms total)
TB77896C0 051:024 JLINK_GetDeviceFamily()  returns 11 (0000ms, 0624ms total)
TB77896C0 051:024 JLINK_ReadReg(CPSR)  returns 0x6000009B (0002ms, 0626ms total)
TB77896C0 051:026 JLINK_ReadReg(R15 (PC))  returns 0x00000204 (0000ms, 0626ms total)
TB77896C0 051:026 JLINK_ReadReg(R7)  returns 0x842209A4 (0000ms, 0626ms total)
TB77896C0 051:026 JLINK_ReadReg(R6)  returns 0x63826418 (0000ms, 0626ms total)
TB77896C0 051:026 JLINK_ReadReg(R5)  returns 0xAD0700D0 (0000ms, 0626ms total)
TB77896C0 051:026 JLINK_ReadReg(R4)  returns 0x7206081C (0000ms, 0626ms total)
TB77896C0 051:026 JLINK_ReadReg(R3)  returns 0x00000006 (0000ms, 0626ms total)
TB77896C0 051:026 JLINK_ReadReg(R2)  returns 0x00000014 (0000ms, 0626ms total)
TB77896C0 051:026 JLINK_ReadReg(R1)  returns 0x782E4410 (0000ms, 0626ms total)
TB77896C0 051:026 JLINK_ReadReg(R0)  returns 0x00000014 (0000ms, 0626ms total)
TB77896C0 051:026 JLINK_ReadReg(R12_USR)  returns 0x8208A052 (0001ms, 0627ms total)
TB77896C0 051:027 JLINK_ReadReg(R11_USR)  returns 0x00000FEC (0000ms, 0627ms total)
TB77896C0 051:027 JLINK_ReadReg(R10_USR)  returns 0x54AB8844 (0000ms, 0627ms total)
TB77896C0 051:027 JLINK_ReadReg(R9_USR)  returns 0xE839B4A8 (0000ms, 0627ms total)
TB77896C0 051:027 JLINK_ReadReg(R8_USR)  returns 0x7A14721A (0000ms, 0627ms total)
TB77896C0 051:027 JLINK_ReadReg(R14_USR)  returns 0x98F12301 (0000ms, 0627ms total)
TB77896C0 051:027 JLINK_ReadReg(R13_USR)  returns 0xC9686820 (0000ms, 0627ms total)
TB77896C0 051:027 JLINK_ReadReg(R12_FIQ)  returns 0x8BCF0245 (0000ms, 0627ms total)
TB77896C0 051:027 JLINK_ReadReg(R11_FIQ)  returns 0x34101E64 (0000ms, 0627ms total)
TB77896C0 051:027 JLINK_ReadReg(R10_FIQ)  returns 0x0A000B47 (0000ms, 0627ms total)
TB77896C0 051:027 JLINK_ReadReg(R9_FIQ)  returns 0x01B56099 (0000ms, 0627ms total)
TB77896C0 051:027 JLINK_ReadReg(R8_FIQ)  returns 0x2B588090 (0000ms, 0627ms total)
TB77896C0 051:027 JLINK_ReadReg(SPSR_FIQ)  returns 0x00000010 (0000ms, 0627ms total)
TB77896C0 051:027 JLINK_ReadReg(R14_FIQ)  returns 0x0E199519 (0000ms, 0627ms total)
TB77896C0 051:027 JLINK_ReadReg(R13_FIQ)  returns 0x4A002056 (0000ms, 0627ms total)
TB77896C0 051:027 JLINK_ReadReg(SPSR_SVC)  returns 0x00000010 (0000ms, 0627ms total)
TB77896C0 051:027 JLINK_ReadReg(R14_SVC)  returns 0xB03FA38A (0000ms, 0627ms total)
TB77896C0 051:027 JLINK_ReadReg(R13_SVC)  returns 0x22943212 (0000ms, 0627ms total)
TB77896C0 051:027 JLINK_ReadReg(SPSR_ABT)  returns 0x00000010 (0000ms, 0627ms total)
TB77896C0 051:027 JLINK_ReadReg(R14_ABT)  returns 0x04D00099 (0000ms, 0627ms total)
TB77896C0 051:027 JLINK_ReadReg(R13_ABT)  returns 0x1A8B2292 (0000ms, 0627ms total)
TB77896C0 051:027 JLINK_ReadReg(SPSR_IRQ)  returns 0x00000010 (0000ms, 0627ms total)
TB77896C0 051:027 JLINK_ReadReg(R14_IRQ)  returns 0x80C000A5 (0000ms, 0627ms total)
TB77896C0 051:027 JLINK_ReadReg(R13_IRQ)  returns 0x0513D41A (0000ms, 0627ms total)
TB77896C0 051:027 JLINK_ReadReg(SPSR_UND)  returns 0x00000010 (0000ms, 0627ms total)
TB77896C0 051:027 JLINK_ReadReg(R14_UND)  returns 0x000000E4 (0000ms, 0627ms total)
TB77896C0 051:027 JLINK_ReadReg(R13_UND)  returns 0x00000FEC (0000ms, 0627ms total)
TB77896C0 054:130 JLINK_IsHalted()  returns TRUE (0003ms, 0630ms total)
TB77896C0 054:133 JLINK_GetDeviceFamily()  returns 11 (0000ms, 0627ms total)
TB77896C0 054:133 JLINK_WriteReg(R15 (PC), 0x00000000)  returns 0x00 (0000ms, 0627ms total)
TB77896C0 054:686 JLINK_GoEx(MaxEmulInsts = 0, Flags = 0x01) (0052ms, 0679ms total)
TB77896C0 059:710 JLINK_IsHalted()  returns FALSE (0052ms, 0731ms total)
TB77896C0 061:577 JLINK_Halt()  returns 0x00 (0104ms, 0783ms total)
TB77896C0 061:681 JLINK_GetDeviceFamily()  returns 11 (0000ms, 0783ms total)
TB77896C0 061:681 JLINK_ReadReg(CPSR)  returns 0x6000009B (0005ms, 0788ms total)
TB77896C0 061:686 JLINK_ReadReg(R15 (PC))  returns 0x000001FC (0000ms, 0788ms total)
TB77896C0 061:686 JLINK_ReadReg(R7)  returns 0x842209A4 (0000ms, 0788ms total)
TB77896C0 061:686 JLINK_ReadReg(R6)  returns 0x63826418 (0000ms, 0788ms total)
TB77896C0 061:686 JLINK_ReadReg(R5)  returns 0xAD0700D0 (0000ms, 0788ms total)
TB77896C0 061:686 JLINK_ReadReg(R4)  returns 0x7206081C (0000ms, 0788ms total)
TB77896C0 061:686 JLINK_ReadReg(R3)  returns 0x00000000 (0000ms, 0788ms total)
TB77896C0 061:686 JLINK_ReadReg(R2)  returns 0x00000014 (0000ms, 0788ms total)
TB77896C0 061:686 JLINK_ReadReg(R1)  returns 0x782E4410 (0000ms, 0788ms total)
TB77896C0 061:686 JLINK_ReadReg(R0)  returns 0x00000014 (0000ms, 0788ms total)
TB77896C0 061:686 JLINK_ReadReg(R12_USR)  returns 0x8208A052 (0000ms, 0788ms total)
TB77896C0 061:686 JLINK_ReadReg(R11_USR)  returns 0x00000FEC (0000ms, 0788ms total)
TB77896C0 061:686 JLINK_ReadReg(R10_USR)  returns 0x54AB8844 (0000ms, 0788ms total)
TB77896C0 061:686 JLINK_ReadReg(R9_USR)  returns 0xE839B4A8 (0000ms, 0788ms total)
TB77896C0 061:686 JLINK_ReadReg(R8_USR)  returns 0x7A14721A (0000ms, 0788ms total)
TB77896C0 061:686 JLINK_ReadReg(R14_USR)  returns 0x98F12301 (0000ms, 0788ms total)
TB77896C0 061:686 JLINK_ReadReg(R13_USR)  returns 0xC9686820 (0000ms, 0788ms total)
TB77896C0 061:686 JLINK_ReadReg(R12_FIQ)  returns 0x8BCF0245 (0000ms, 0788ms total)
TB77896C0 061:686 JLINK_ReadReg(R11_FIQ)  returns 0x34101E64 (0000ms, 0788ms total)
TB77896C0 061:686 JLINK_ReadReg(R10_FIQ)  returns 0x0A000B47 (0000ms, 0788ms total)
TB77896C0 061:686 JLINK_ReadReg(R9_FIQ)  returns 0x01B56099 (0001ms, 0789ms total)
TB77896C0 061:687 JLINK_ReadReg(R8_FIQ)  returns 0x2B588090 (0000ms, 0789ms total)
TB77896C0 061:687 JLINK_ReadReg(SPSR_FIQ)  returns 0x00000010 (0000ms, 0789ms total)
TB77896C0 061:687 JLINK_ReadReg(R14_FIQ)  returns 0x0E199519 (0000ms, 0789ms total)
TB77896C0 061:687 JLINK_ReadReg(R13_FIQ)  returns 0x4A002056 (0000ms, 0789ms total)
TB77896C0 061:687 JLINK_ReadReg(SPSR_SVC)  returns 0x00000010 (0000ms, 0789ms total)
TB77896C0 061:687 JLINK_ReadReg(R14_SVC)  returns 0xB03FA38A (0000ms, 0789ms total)
TB77896C0 061:687 JLINK_ReadReg(R13_SVC)  returns 0x22943212 (0000ms, 0789ms total)
TB77896C0 061:687 JLINK_ReadReg(SPSR_ABT)  returns 0x00000010 (0000ms, 0789ms total)
TB77896C0 061:687 JLINK_ReadReg(R14_ABT)  returns 0x04D00099 (0000ms, 0789ms total)
TB77896C0 061:687 JLINK_ReadReg(R13_ABT)  returns 0x1A8B2292 (0000ms, 0789ms total)
TB77896C0 061:687 JLINK_ReadReg(SPSR_IRQ)  returns 0x00000010 (0000ms, 0789ms total)
TB77896C0 061:687 JLINK_ReadReg(R14_IRQ)  returns 0x80C000A5 (0002ms, 0791ms total)
TB77896C0 061:689 JLINK_ReadReg(R13_IRQ)  returns 0x0513D41A (0000ms, 0791ms total)
TB77896C0 061:689 JLINK_ReadReg(SPSR_UND)  returns 0x00000010 (0000ms, 0791ms total)
TB77896C0 061:689 JLINK_ReadReg(R14_UND)  returns 0x000000E4 (0000ms, 0791ms total)
TB77896C0 061:689 JLINK_ReadReg(R13_UND)  returns 0x00000FEC (0000ms, 0791ms total)
TB77896C0 062:958 JLINK_IsHalted()  returns TRUE (0004ms, 0796ms total)
TB77896C0 062:962 JLINK_GetDeviceFamily()  returns 11 (0000ms, 0792ms total)
TB77896C0 062:962 JLINK_WriteReg(R15 (PC), 0x00000000)  returns 0x00 (0000ms, 0792ms total)
TB77896C0 065:813 JLINK_GoEx(MaxEmulInsts = 0, Flags = 0x01) (0055ms, 0847ms total)
TB77896C0 208:898 JLINK_Halt()  returns 0x00 (0107ms, 0954ms total)
TB77896C0 209:005 JLINK_GetDeviceFamily()  returns 11 (0000ms, 0954ms total)
TB77896C0 209:005 JLINK_ReadReg(CPSR)  returns 0x6000009B (0003ms, 0957ms total)
TB77896C0 209:008 JLINK_ReadReg(R15 (PC))  returns 0x00000204 (0000ms, 0957ms total)
TB77896C0 209:008 JLINK_ReadReg(R7)  returns 0x842209A4 (0000ms, 0957ms total)
TB77896C0 209:008 JLINK_ReadReg(R6)  returns 0x63826418 (0000ms, 0957ms total)
TB77896C0 209:008 JLINK_ReadReg(R5)  returns 0xAD0700D0 (0001ms, 0958ms total)
TB77896C0 209:009 JLINK_ReadReg(R4)  returns 0x7206081C (0000ms, 0958ms total)
TB77896C0 209:009 JLINK_ReadReg(R3)  returns 0x00000006 (0000ms, 0958ms total)
TB77896C0 209:009 JLINK_ReadReg(R2)  returns 0x00000014 (0000ms, 0958ms total)
TB77896C0 209:009 JLINK_ReadReg(R1)  returns 0x782E4410 (0000ms, 0958ms total)
TB77896C0 209:009 JLINK_ReadReg(R0)  returns 0x00000014 (0000ms, 0958ms total)
TB77896C0 209:009 JLINK_ReadReg(R12_USR)  returns 0x8208A052 (0000ms, 0958ms total)
TB77896C0 209:009 JLINK_ReadReg(R11_USR)  returns 0x00000FEC (0000ms, 0958ms total)
TB77896C0 209:009 JLINK_ReadReg(R10_USR)  returns 0x54AB8844 (0000ms, 0958ms total)
TB77896C0 209:009 JLINK_ReadReg(R9_USR)  returns 0xE839B4A8 (0000ms, 0958ms total)
TB77896C0 209:009 JLINK_ReadReg(R8_USR)  returns 0x7A14721A (0000ms, 0958ms total)
TB77896C0 209:009 JLINK_ReadReg(R14_USR)  returns 0x98F12301 (0000ms, 0958ms total)
TB77896C0 209:009 JLINK_ReadReg(R13_USR)  returns 0xC9686820 (0000ms, 0958ms total)
TB77896C0 209:009 JLINK_ReadReg(R12_FIQ)  returns 0x8BCF0245 (0000ms, 0958ms total)
TB77896C0 209:009 JLINK_ReadReg(R11_FIQ)  returns 0x34101E64 (0000ms, 0958ms total)
TB77896C0 209:009 JLINK_ReadReg(R10_FIQ)  returns 0x0A000B47 (0000ms, 0958ms total)
TB77896C0 209:009 JLINK_ReadReg(R9_FIQ)  returns 0x01B56099 (0000ms, 0958ms total)
TB77896C0 209:009 JLINK_ReadReg(R8_FIQ)  returns 0x2B588090 (0000ms, 0958ms total)
TB77896C0 209:009 JLINK_ReadReg(SPSR_FIQ)  returns 0x00000010 (0000ms, 0958ms total)
TB77896C0 209:009 JLINK_ReadReg(R14_FIQ)  returns 0x0E199519 (0000ms, 0958ms total)
TB77896C0 209:009 JLINK_ReadReg(R13_FIQ)  returns 0x4A002056 (0000ms, 0958ms total)
TB77896C0 209:009 JLINK_ReadReg(SPSR_SVC)  returns 0x00000010 (0000ms, 0958ms total)
TB77896C0 209:009 JLINK_ReadReg(R14_SVC)  returns 0xB03FA38A (0000ms, 0958ms total)
TB77896C0 209:009 JLINK_ReadReg(R13_SVC)  returns 0x22943212 (0000ms, 0958ms total)
TB77896C0 209:009 JLINK_ReadReg(SPSR_ABT)  returns 0x00000010 (0000ms, 0958ms total)
TB77896C0 209:009 JLINK_ReadReg(R14_ABT)  returns 0x04D00099 (0000ms, 0958ms total)
TB77896C0 209:009 JLINK_ReadReg(R13_ABT)  returns 0x1A8B2292 (0000ms, 0958ms total)
TB77896C0 209:009 JLINK_ReadReg(SPSR_IRQ)  returns 0x00000010 (0000ms, 0958ms total)
TB77896C0 209:009 JLINK_ReadReg(R14_IRQ)  returns 0x80C000A5 (0000ms, 0958ms total)
TB77896C0 209:009 JLINK_ReadReg(R13_IRQ)  returns 0x0513D41A (0000ms, 0958ms total)
TB77896C0 209:009 JLINK_ReadReg(SPSR_UND)  returns 0x00000010 (0000ms, 0958ms total)
TB77896C0 209:010 JLINK_ReadReg(R14_UND)  returns 0x000000E4 (0000ms, 0958ms total)
TB77896C0 209:010 JLINK_ReadReg(R13_UND)  returns 0x00000FEC (0000ms, 0958ms total)
TB77896C0 213:564 JLINK_IsHalted()  returns TRUE (0007ms, 0965ms total)
TB77896C0 213:571 JLINK_BeginDownload(Flags = 0x00) (0000ms, 0958ms total)
TB77896C0 213:571 JLINK_WriteMem(0x00000000, 0x0238 Bytes, ...) -- Data:  07 02 A0 E3 13 00 80 E3 92 0F 0F EE 01 DA A0 E3 ... -- CPU_WriteMem(568 bytes @ 0x00000000)  returns 0x238 (0281ms, 1239ms total)
TB77896C0 213:852 JLINK_EndDownload()  returns 0x00 (0000ms, 1239ms total)
TB77896C0 215:992 JLINK_IsHalted()  returns TRUE (0007ms, 1246ms total)
TB77896C0 215:999 JLINK_GetDeviceFamily()  returns 11 (0000ms, 1239ms total)
TB77896C0 215:999 JLINK_WriteReg(R15 (PC), 0x00000000)  returns 0x00 (0000ms, 1239ms total)
TB77896C0 216:615 JLINK_GoEx(MaxEmulInsts = 0, Flags = 0x01) (0053ms, 1292ms total)
TB77896C0 226:107 JLINK_Halt()  returns 0x00 (0105ms, 1397ms total)
TB77896C0 226:212 JLINK_GetDeviceFamily()  returns 11 (0000ms, 1397ms total)
TB77896C0 226:212 JLINK_ReadReg(CPSR)  returns 0x6000009B (0003ms, 1400ms total)
TB77896C0 226:215 JLINK_ReadReg(R15 (PC))  returns 0x00000200 (0000ms, 1400ms total)
TB77896C0 226:215 JLINK_ReadReg(R7)  returns 0x842209A4 (0000ms, 1400ms total)
TB77896C0 226:215 JLINK_ReadReg(R6)  returns 0x63826418 (0000ms, 1400ms total)
TB77896C0 226:215 JLINK_ReadReg(R5)  returns 0xAD0700D0 (0000ms, 1400ms total)
TB77896C0 226:215 JLINK_ReadReg(R4)  returns 0x7206081C (0000ms, 1400ms total)
TB77896C0 226:215 JLINK_ReadReg(R3)  returns 0x00000000 (0000ms, 1400ms total)
TB77896C0 226:215 JLINK_ReadReg(R2)  returns 0x0000001A (0000ms, 1400ms total)
TB77896C0 226:215 JLINK_ReadReg(R1)  returns 0x782E4410 (0000ms, 1400ms total)
TB77896C0 226:215 JLINK_ReadReg(R0)  returns 0x70000013 (0000ms, 1400ms total)
TB77896C0 226:215 JLINK_ReadReg(R12_USR)  returns 0x8208A052 (0000ms, 1400ms total)
TB77896C0 226:215 JLINK_ReadReg(R11_USR)  returns 0x00000FEC (0000ms, 1400ms total)
TB77896C0 226:215 JLINK_ReadReg(R10_USR)  returns 0x54AB8844 (0000ms, 1400ms total)
TB77896C0 226:215 JLINK_ReadReg(R9_USR)  returns 0xE839B4A8 (0000ms, 1400ms total)
TB77896C0 226:215 JLINK_ReadReg(R8_USR)  returns 0x7A14721A (0000ms, 1400ms total)
TB77896C0 226:215 JLINK_ReadReg(R14_USR)  returns 0x98F12301 (0000ms, 1400ms total)
TB77896C0 226:215 JLINK_ReadReg(R13_USR)  returns 0xC9686820 (0000ms, 1400ms total)
TB77896C0 226:215 JLINK_ReadReg(R12_FIQ)  returns 0x8BCF0245 (0001ms, 1401ms total)
TB77896C0 226:216 JLINK_ReadReg(R11_FIQ)  returns 0x34101E64 (0000ms, 1401ms total)
TB77896C0 226:216 JLINK_ReadReg(R10_FIQ)  returns 0x0A000B47 (0000ms, 1401ms total)
TB77896C0 226:216 JLINK_ReadReg(R9_FIQ)  returns 0x01B56099 (0000ms, 1401ms total)
TB77896C0 226:216 JLINK_ReadReg(R8_FIQ)  returns 0x2B588090 (0000ms, 1401ms total)
TB77896C0 226:216 JLINK_ReadReg(SPSR_FIQ)  returns 0x00000010 (0000ms, 1401ms total)
TB77896C0 226:216 JLINK_ReadReg(R14_FIQ)  returns 0x0E199519 (0000ms, 1401ms total)
TB77896C0 226:216 JLINK_ReadReg(R13_FIQ)  returns 0x4A002056 (0000ms, 1401ms total)
TB77896C0 226:216 JLINK_ReadReg(SPSR_SVC)  returns 0x00000010 (0000ms, 1401ms total)
TB77896C0 226:216 JLINK_ReadReg(R14_SVC)  returns 0xB03FA38A (0000ms, 1401ms total)
TB77896C0 226:216 JLINK_ReadReg(R13_SVC)  returns 0x22943212 (0000ms, 1401ms total)
TB77896C0 226:216 JLINK_ReadReg(SPSR_ABT)  returns 0x00000010 (0000ms, 1401ms total)
TB77896C0 226:216 JLINK_ReadReg(R14_ABT)  returns 0x04D00099 (0000ms, 1401ms total)
TB77896C0 226:216 JLINK_ReadReg(R13_ABT)  returns 0x1A8B2292 (0001ms, 1402ms total)
TB77896C0 226:217 JLINK_ReadReg(SPSR_IRQ)  returns 0x00000010 (0000ms, 1402ms total)
TB77896C0 226:217 JLINK_ReadReg(R14_IRQ)  returns 0x80C000A5 (0000ms, 1402ms total)
TB77896C0 226:217 JLINK_ReadReg(R13_IRQ)  returns 0x0513D41A (0000ms, 1402ms total)
TB77896C0 226:217 JLINK_ReadReg(SPSR_UND)  returns 0x00000010 (0000ms, 1402ms total)
TB77896C0 226:217 JLINK_ReadReg(R14_UND)  returns 0x000000DC (0000ms, 1402ms total)
TB77896C0 226:217 JLINK_ReadReg(R13_UND)  returns 0x00000FEC (0000ms, 1402ms total)
TB77896C0 243:993 JLINK_IsHalted()  returns TRUE (0004ms, 1406ms total)
TB77896C0 243:997 JLINK_GetDeviceFamily()  returns 11 (0000ms, 1402ms total)
TB77896C0 243:997 JLINK_WriteReg(R15 (PC), 0x00000000)  returns 0x00 (0000ms, 1402ms total)
TB77896C0 245:104 JLINK_GoEx(MaxEmulInsts = 0, Flags = 0x01) (0055ms, 1457ms total)
TB77896C0 1063:880 JLINK_IsHalted()  returns FALSE (0003ms, 1460ms total)
TB77896C0 1063:883 JLINK_Halt()  returns 0x00 (0102ms, 1559ms total)
TB77896C0 1063:985 JLINK_BeginDownload(Flags = 0x00) (0000ms, 1559ms total)
TB77896C0 1063:985 JLINK_WriteMem(0x00000000, 0x024C Bytes, ...) -- Data:  07 02 A0 E3 13 00 80 E3 92 0F 0F EE 01 DA A0 E3 ... -- CPU_WriteMem(588 bytes @ 0x00000000)  returns 0x24C (0280ms, 1839ms total)
TB77896C0 1064:265 JLINK_EndDownload()  returns 0x00 (0000ms, 1839ms total)
TB77896C0 1066:307 JLINK_IsHalted()  returns TRUE (0004ms, 1843ms total)
TB77896C0 1066:311 JLINK_GetDeviceFamily()  returns 11 (0000ms, 1839ms total)
TB77896C0 1066:311 JLINK_WriteReg(R15 (PC), 0x00000000)  returns 0x00 (0000ms, 1839ms total)
TB77896C0 1067:002 JLINK_GoEx(MaxEmulInsts = 0, Flags = 0x01) (0051ms, 1890ms total)
TB77896C0 1132:163 JLINK_Halt()  returns 0x00 (0104ms, 1994ms total)
TB77896C0 1132:267 JLINK_GetDeviceFamily()  returns 11 (0000ms, 1994ms total)
TB77896C0 1132:267 JLINK_ReadReg(CPSR)  returns 0x6000009B (0002ms, 1996ms total)
TB77896C0 1132:269 JLINK_ReadReg(R15 (PC))  returns 0x00000218 (0000ms, 1996ms total)
TB77896C0 1132:269 JLINK_ReadReg(R7)  returns 0x842209A4 (0000ms, 1996ms total)
TB77896C0 1132:269 JLINK_ReadReg(R6)  returns 0x63826418 (0000ms, 1996ms total)
TB77896C0 1132:269 JLINK_ReadReg(R5)  returns 0xAD0700D0 (0000ms, 1996ms total)
TB77896C0 1132:269 JLINK_ReadReg(R4)  returns 0x7206081C (0000ms, 1996ms total)
TB77896C0 1132:269 JLINK_ReadReg(R3)  returns 0x7F005010 (0000ms, 1996ms total)
TB77896C0 1132:269 JLINK_ReadReg(R2)  returns 0x000000FE (0000ms, 1996ms total)
TB77896C0 1132:269 JLINK_ReadReg(R1)  returns 0x782E4410 (0000ms, 1996ms total)
TB77896C0 1132:269 JLINK_ReadReg(R0)  returns 0x000000FE (0000ms, 1996ms total)
TB77896C0 1132:269 JLINK_ReadReg(R12_USR)  returns 0x8208A052 (0000ms, 1996ms total)
TB77896C0 1132:269 JLINK_ReadReg(R11_USR)  returns 0x00000FEC (0000ms, 1996ms total)
TB77896C0 1132:269 JLINK_ReadReg(R10_USR)  returns 0x54AB8844 (0000ms, 1996ms total)
TB77896C0 1132:269 JLINK_ReadReg(R9_USR)  returns 0xE839B4A8 (0000ms, 1996ms total)
TB77896C0 1132:269 JLINK_ReadReg(R8_USR)  returns 0x7A14721A (0000ms, 1996ms total)
TB77896C0 1132:269 JLINK_ReadReg(R14_USR)  returns 0x98F12301 (0000ms, 1996ms total)
TB77896C0 1132:269 JLINK_ReadReg(R13_USR)  returns 0xC9686820 (0000ms, 1996ms total)
TB77896C0 1132:269 JLINK_ReadReg(R12_FIQ)  returns 0x8BCF0245 (0000ms, 1996ms total)
TB77896C0 1132:269 JLINK_ReadReg(R11_FIQ)  returns 0x34101E64 (0000ms, 1996ms total)
TB77896C0 1132:269 JLINK_ReadReg(R10_FIQ)  returns 0x0A000B47 (0000ms, 1996ms total)
TB77896C0 1132:269 JLINK_ReadReg(R9_FIQ)  returns 0x01B56099 (0000ms, 1996ms total)
TB77896C0 1132:269 JLINK_ReadReg(R8_FIQ)  returns 0x2B588090 (0000ms, 1996ms total)
TB77896C0 1132:269 JLINK_ReadReg(SPSR_FIQ)  returns 0x00000010 (0000ms, 1996ms total)
TB77896C0 1132:269 JLINK_ReadReg(R14_FIQ)  returns 0x0E199519 (0000ms, 1996ms total)
TB77896C0 1132:269 JLINK_ReadReg(R13_FIQ)  returns 0x4A002056 (0001ms, 1997ms total)
TB77896C0 1132:270 JLINK_ReadReg(SPSR_SVC)  returns 0x00000010 (0000ms, 1997ms total)
TB77896C0 1132:270 JLINK_ReadReg(R14_SVC)  returns 0xB03FA38A (0000ms, 1997ms total)
TB77896C0 1132:270 JLINK_ReadReg(R13_SVC)  returns 0x22943212 (0000ms, 1997ms total)
TB77896C0 1132:270 JLINK_ReadReg(SPSR_ABT)  returns 0x00000010 (0000ms, 1997ms total)
TB77896C0 1132:270 JLINK_ReadReg(R14_ABT)  returns 0x04D00099 (0000ms, 1997ms total)
TB77896C0 1132:270 JLINK_ReadReg(R13_ABT)  returns 0x1A8B2292 (0000ms, 1997ms total)
TB77896C0 1132:271 JLINK_ReadReg(SPSR_IRQ)  returns 0x00000010 (0000ms, 1997ms total)
TB77896C0 1132:271 JLINK_ReadReg(R14_IRQ)  returns 0x80C000A5 (0000ms, 1997ms total)
TB77896C0 1132:271 JLINK_ReadReg(R13_IRQ)  returns 0x0513D41A (0000ms, 1997ms total)
TB77896C0 1132:271 JLINK_ReadReg(SPSR_UND)  returns 0x00000010 (0000ms, 1997ms total)
TB77896C0 1132:271 JLINK_ReadReg(R14_UND)  returns 0x000000E4 (0000ms, 1997ms total)
TB77896C0 1132:271 JLINK_ReadReg(R13_UND)  returns 0x00000FEC (0000ms, 1997ms total)
TB77896C0 1134:158 JLINK_IsHalted()  returns TRUE (0004ms, 2001ms total)
TB77896C0 1134:162 JLINK_BeginDownload(Flags = 0x00) (0000ms, 1997ms total)
TB77896C0 1134:162 JLINK_WriteMem(0x00000000, 0x024C Bytes, ...) -- Data:  07 02 A0 E3 13 00 80 E3 92 0F 0F EE 01 DA A0 E3 ... -- CPU_WriteMem(588 bytes @ 0x00000000)  returns 0x24C (0281ms, 2278ms total)
TB77896C0 1134:443 JLINK_EndDownload()  returns 0x00 (0000ms, 2278ms total)
TB77896C0 1136:416 JLINK_IsHalted()  returns TRUE (0003ms, 2281ms total)
TB77896C0 1136:419 JLINK_GetDeviceFamily()  returns 11 (0000ms, 2278ms total)
TB77896C0 1136:419 JLINK_WriteReg(R15 (PC), 0x00000000)  returns 0x00 (0000ms, 2278ms total)
TB77896C0 1137:438 JLINK_GoEx(MaxEmulInsts = 0, Flags = 0x01) (0052ms, 2330ms total)
TB77896C0 1193:567 JLINK_Halt()  returns 0x00 (0104ms, 2434ms total)
TB77896C0 1193:671 JLINK_GetDeviceFamily()  returns 11 (0000ms, 2434ms total)
TB77896C0 1193:671 JLINK_ReadReg(CPSR)  returns 0x6000009B (0002ms, 2436ms total)
TB77896C0 1193:673 JLINK_ReadReg(R15 (PC))  returns 0x0000021C (0000ms, 2436ms total)
TB77896C0 1193:673 JLINK_ReadReg(R7)  returns 0x842209A4 (0000ms, 2436ms total)
TB77896C0 1193:673 JLINK_ReadReg(R6)  returns 0x63826418 (0000ms, 2436ms total)
TB77896C0 1193:673 JLINK_ReadReg(R5)  returns 0xAD0700D0 (0000ms, 2436ms total)
TB77896C0 1193:673 JLINK_ReadReg(R4)  returns 0x7206081C (0000ms, 2436ms total)
TB77896C0 1193:673 JLINK_ReadReg(R3)  returns 0x00000006 (0000ms, 2436ms total)
TB77896C0 1193:673 JLINK_ReadReg(R2)  returns 0x000000FF (0000ms, 2436ms total)
TB77896C0 1193:673 JLINK_ReadReg(R1)  returns 0x782E4410 (0000ms, 2436ms total)
TB77896C0 1193:673 JLINK_ReadReg(R0)  returns 0x000000FF (0000ms, 2436ms total)
TB77896C0 1193:673 JLINK_ReadReg(R12_USR)  returns 0x8208A052 (0000ms, 2436ms total)
TB77896C0 1193:673 JLINK_ReadReg(R11_USR)  returns 0x00000FEC (0000ms, 2436ms total)
TB77896C0 1193:673 JLINK_ReadReg(R10_USR)  returns 0x54AB8844 (0000ms, 2436ms total)
TB77896C0 1193:673 JLINK_ReadReg(R9_USR)  returns 0xE839B4A8 (0000ms, 2436ms total)
TB77896C0 1193:673 JLINK_ReadReg(R8_USR)  returns 0x7A14721A (0000ms, 2436ms total)
TB77896C0 1193:673 JLINK_ReadReg(R14_USR)  returns 0x98F12301 (0000ms, 2436ms total)
TB77896C0 1193:673 JLINK_ReadReg(R13_USR)  returns 0xC9686820 (0000ms, 2436ms total)
TB77896C0 1193:674 JLINK_ReadReg(R12_FIQ)  returns 0x8BCF0245 (0000ms, 2436ms total)
TB77896C0 1193:674 JLINK_ReadReg(R11_FIQ)  returns 0x34101E64 (0000ms, 2436ms total)
TB77896C0 1193:674 JLINK_ReadReg(R10_FIQ)  returns 0x0A000B47 (0000ms, 2436ms total)
TB77896C0 1193:674 JLINK_ReadReg(R9_FIQ)  returns 0x01B56099 (0000ms, 2436ms total)
TB77896C0 1193:674 JLINK_ReadReg(R8_FIQ)  returns 0x2B588090 (0000ms, 2436ms total)
TB77896C0 1193:674 JLINK_ReadReg(SPSR_FIQ)  returns 0x00000010 (0000ms, 2436ms total)
TB77896C0 1193:674 JLINK_ReadReg(R14_FIQ)  returns 0x0E199519 (0000ms, 2436ms total)
TB77896C0 1193:674 JLINK_ReadReg(R13_FIQ)  returns 0x4A002056 (0000ms, 2436ms total)
TB77896C0 1193:674 JLINK_ReadReg(SPSR_SVC)  returns 0x00000010 (0000ms, 2436ms total)
TB77896C0 1193:674 JLINK_ReadReg(R14_SVC)  returns 0xB03FA38A (0000ms, 2436ms total)
TB77896C0 1193:674 JLINK_ReadReg(R13_SVC)  returns 0x22943212 (0000ms, 2436ms total)
TB77896C0 1193:674 JLINK_ReadReg(SPSR_ABT)  returns 0x00000010 (0000ms, 2436ms total)
TB77896C0 1193:674 JLINK_ReadReg(R14_ABT)  returns 0x04D00099 (0000ms, 2436ms total)
TB77896C0 1193:674 JLINK_ReadReg(R13_ABT)  returns 0x1A8B2292 (0000ms, 2436ms total)
TB77896C0 1193:674 JLINK_ReadReg(SPSR_IRQ)  returns 0x00000010 (0000ms, 2436ms total)
TB77896C0 1193:674 JLINK_ReadReg(R14_IRQ)  returns 0x80C000A5 (0000ms, 2436ms total)
TB77896C0 1193:674 JLINK_ReadReg(R13_IRQ)  returns 0x0513D41A (0000ms, 2436ms total)
TB77896C0 1193:674 JLINK_ReadReg(SPSR_UND)  returns 0x00000010 (0000ms, 2436ms total)
TB77896C0 1193:674 JLINK_ReadReg(R14_UND)  returns 0x000000E4 (0000ms, 2436ms total)
TB77896C0 1193:674 JLINK_ReadReg(R13_UND)  returns 0x00000FEC (0000ms, 2436ms total)
TB77896C0 1195:591 JLINK_IsHalted()  returns TRUE (0004ms, 2440ms total)
TB77896C0 1195:595 JLINK_BeginDownload(Flags = 0x00) (0000ms, 2436ms total)
TB77896C0 1195:595 JLINK_WriteMem(0x00000000, 0x024C Bytes, ...) -- Data:  07 02 A0 E3 13 00 80 E3 92 0F 0F EE 01 DA A0 E3 ... -- CPU_WriteMem(588 bytes @ 0x00000000)  returns 0x24C (0281ms, 2717ms total)
TB77896C0 1195:876 JLINK_EndDownload()  returns 0x00 (0000ms, 2717ms total)
TB77896C0 1197:232 JLINK_IsHalted()  returns TRUE (0004ms, 2721ms total)
TB77896C0 1197:236 JLINK_BeginDownload(Flags = 0x00) (0000ms, 2717ms total)
TB77896C0 1197:236 JLINK_WriteMem(0x00000000, 0x024C Bytes, ...) -- Data:  07 02 A0 E3 13 00 80 E3 92 0F 0F EE 01 DA A0 E3 ... -- CPU_WriteMem(588 bytes @ 0x00000000)  returns 0x24C (0278ms, 2995ms total)
TB77896C0 1197:514 JLINK_EndDownload()  returns 0x00 (0000ms, 2995ms total)
TB77896C0 1199:492 JLINK_IsHalted()  returns TRUE (0003ms, 2998ms total)
TB77896C0 1199:495 JLINK_GetDeviceFamily()  returns 11 (0000ms, 2995ms total)
TB77896C0 1199:495 JLINK_WriteReg(R15 (PC), 0x00000000)  returns 0x00 (0000ms, 2995ms total)
TB77896C0 1200:303 JLINK_GoEx(MaxEmulInsts = 0, Flags = 0x01) (0050ms, 3045ms total)
TB77896C0 1281:608 JLINK_Halt()  returns 0x00 (0102ms, 3147ms total)
TB77896C0 1281:710 JLINK_GetDeviceFamily()  returns 11 (0000ms, 3147ms total)
TB77896C0 1281:711 JLINK_ReadReg(CPSR)  returns 0x6000009B (0002ms, 3150ms total)
TB77896C0 1281:713 JLINK_ReadReg(R15 (PC))  returns 0x00000218 (0000ms, 3150ms total)
TB77896C0 1281:713 JLINK_ReadReg(R7)  returns 0x842209A4 (0000ms, 3150ms total)
TB77896C0 1281:713 JLINK_ReadReg(R6)  returns 0x63826418 (0000ms, 3150ms total)
TB77896C0 1281:713 JLINK_ReadReg(R5)  returns 0xAD0700D0 (0000ms, 3150ms total)
TB77896C0 1281:713 JLINK_ReadReg(R4)  returns 0x7206081C (0000ms, 3150ms total)
TB77896C0 1281:713 JLINK_ReadReg(R3)  returns 0x7F005010 (0000ms, 3150ms total)
TB77896C0 1281:713 JLINK_ReadReg(R2)  returns 0x000000C2 (0000ms, 3150ms total)
TB77896C0 1281:713 JLINK_ReadReg(R1)  returns 0x782E4410 (0000ms, 3150ms total)
TB77896C0 1281:713 JLINK_ReadReg(R0)  returns 0x000000C2 (0000ms, 3150ms total)
TB77896C0 1281:713 JLINK_ReadReg(R12_USR)  returns 0x8208A052 (0000ms, 3150ms total)
TB77896C0 1281:713 JLINK_ReadReg(R11_USR)  returns 0x00000FEC (0000ms, 3150ms total)
TB77896C0 1281:713 JLINK_ReadReg(R10_USR)  returns 0x54AB8844 (0000ms, 3150ms total)
TB77896C0 1281:713 JLINK_ReadReg(R9_USR)  returns 0xE839B4A8 (0000ms, 3150ms total)
TB77896C0 1281:713 JLINK_ReadReg(R8_USR)  returns 0x7A14721A (0000ms, 3150ms total)
TB77896C0 1281:713 JLINK_ReadReg(R14_USR)  returns 0x98F12301 (0000ms, 3150ms total)
TB77896C0 1281:713 JLINK_ReadReg(R13_USR)  returns 0xC9686820 (0000ms, 3150ms total)
TB77896C0 1281:713 JLINK_ReadReg(R12_FIQ)  returns 0x8BCF0245 (0000ms, 3150ms total)
TB77896C0 1281:713 JLINK_ReadReg(R11_FIQ)  returns 0x34101E64 (0000ms, 3150ms total)
TB77896C0 1281:713 JLINK_ReadReg(R10_FIQ)  returns 0x0A000B47 (0000ms, 3150ms total)
TB77896C0 1281:713 JLINK_ReadReg(R9_FIQ)  returns 0x01B56099 (0000ms, 3150ms total)
TB77896C0 1281:713 JLINK_ReadReg(R8_FIQ)  returns 0x2B588090 (0000ms, 3150ms total)
TB77896C0 1281:713 JLINK_ReadReg(SPSR_FIQ)  returns 0x00000010 (0000ms, 3150ms total)
TB77896C0 1281:713 JLINK_ReadReg(R14_FIQ)  returns 0x0E199519 (0000ms, 3150ms total)
TB77896C0 1281:713 JLINK_ReadReg(R13_FIQ)  returns 0x4A002056 (0000ms, 3150ms total)
TB77896C0 1281:713 JLINK_ReadReg(SPSR_SVC)  returns 0x00000010 (0000ms, 3150ms total)
TB77896C0 1281:713 JLINK_ReadReg(R14_SVC)  returns 0xB03FA38A (0000ms, 3150ms total)
TB77896C0 1281:713 JLINK_ReadReg(R13_SVC)  returns 0x22943212 (0001ms, 3151ms total)
TB77896C0 1281:714 JLINK_ReadReg(SPSR_ABT)  returns 0x00000010 (0000ms, 3151ms total)
TB77896C0 1281:714 JLINK_ReadReg(R14_ABT)  returns 0x04D00099 (0001ms, 3152ms total)
TB77896C0 1281:715 JLINK_ReadReg(R13_ABT)  returns 0x1A8B2292 (0000ms, 3152ms total)
TB77896C0 1281:715 JLINK_ReadReg(SPSR_IRQ)  returns 0x00000010 (0000ms, 3152ms total)
TB77896C0 1281:715 JLINK_ReadReg(R14_IRQ)  returns 0x80C000A5 (0000ms, 3152ms total)
TB77896C0 1281:715 JLINK_ReadReg(R13_IRQ)  returns 0x0513D41A (0000ms, 3152ms total)
TB77896C0 1281:715 JLINK_ReadReg(SPSR_UND)  returns 0x00000010 (0000ms, 3152ms total)
TB77896C0 1281:715 JLINK_ReadReg(R14_UND)  returns 0x000000E4 (0000ms, 3152ms total)
TB77896C0 1281:715 JLINK_ReadReg(R13_UND)  returns 0x00000FEC (0000ms, 3152ms total)
TB77896C0 1283:542 JLINK_IsHalted()  returns TRUE (0004ms, 3156ms total)
TB77896C0 1283:546 JLINK_BeginDownload(Flags = 0x00) (0000ms, 3152ms total)
TB77896C0 1283:546 JLINK_WriteMem(0x00000000, 0x024C Bytes, ...) -- Data:  07 02 A0 E3 13 00 80 E3 92 0F 0F EE 01 DA A0 E3 ... -- CPU_WriteMem(588 bytes @ 0x00000000)  returns 0x24C (0280ms, 3432ms total)
TB77896C0 1283:826 JLINK_EndDownload()  returns 0x00 (0000ms, 3432ms total)
TB77896C0 1286:129 JLINK_IsHalted()  returns TRUE (0004ms, 3436ms total)
TB77896C0 1286:133 JLINK_GetDeviceFamily()  returns 11 (0000ms, 3432ms total)
TB77896C0 1286:133 JLINK_WriteReg(R15 (PC), 0x00000000)  returns 0x00 (0000ms, 3432ms total)
TB77896C0 1286:952 JLINK_GoEx(MaxEmulInsts = 0, Flags = 0x01) (0095ms, 3527ms total)
TB77896C0 1795:454 JLINK_Halt()  returns 0x00 (0102ms, 3629ms total)
TB77896C0 1795:556 JLINK_GetDeviceFamily()  returns 11 (0000ms, 3629ms total)
TB77896C0 1795:556 JLINK_ReadReg(CPSR)  returns 0x6000009B (0004ms, 3633ms total)
TB77896C0 1795:560 JLINK_ReadReg(R15 (PC))  returns 0x00000218 (0000ms, 3633ms total)
TB77896C0 1795:560 JLINK_ReadReg(R7)  returns 0x842209A4 (0000ms, 3633ms total)
TB77896C0 1795:560 JLINK_ReadReg(R6)  returns 0x63826418 (0000ms, 3633ms total)
TB77896C0 1795:560 JLINK_ReadReg(R5)  returns 0xAD0700D0 (0000ms, 3633ms total)
TB77896C0 1795:560 JLINK_ReadReg(R4)  returns 0x7206081C (0000ms, 3633ms total)
TB77896C0 1795:560 JLINK_ReadReg(R3)  returns 0x7F005010 (0000ms, 3633ms total)
TB77896C0 1795:560 JLINK_ReadReg(R2)  returns 0x000000FF (0000ms, 3633ms total)
TB77896C0 1795:560 JLINK_ReadReg(R1)  returns 0x782E4410 (0000ms, 3633ms total)
TB77896C0 1795:560 JLINK_ReadReg(R0)  returns 0x000000FF (0000ms, 3633ms total)
TB77896C0 1795:560 JLINK_ReadReg(R12_USR)  returns 0x8208A052 (0000ms, 3633ms total)
TB77896C0 1795:560 JLINK_ReadReg(R11_USR)  returns 0x00000FEC (0000ms, 3633ms total)
TB77896C0 1795:560 JLINK_ReadReg(R10_USR)  returns 0x54AB8844 (0000ms, 3633ms total)
TB77896C0 1795:560 JLINK_ReadReg(R9_USR)  returns 0xE839B4A8 (0000ms, 3633ms total)
TB77896C0 1795:560 JLINK_ReadReg(R8_USR)  returns 0x7A14721A (0000ms, 3633ms total)
TB77896C0 1795:560 JLINK_ReadReg(R14_USR)  returns 0x98F12301 (0000ms, 3633ms total)
TB77896C0 1795:560 JLINK_ReadReg(R13_USR)  returns 0xC9686820 (0000ms, 3633ms total)
TB77896C0 1795:560 JLINK_ReadReg(R12_FIQ)  returns 0x8BCF0245 (0000ms, 3633ms total)
TB77896C0 1795:560 JLINK_ReadReg(R11_FIQ)  returns 0x34101E64 (0000ms, 3633ms total)
TB77896C0 1795:560 JLINK_ReadReg(R10_FIQ)  returns 0x0A000B47 (0000ms, 3633ms total)
TB77896C0 1795:560 JLINK_ReadReg(R9_FIQ)  returns 0x01B56099 (0000ms, 3633ms total)
TB77896C0 1795:560 JLINK_ReadReg(R8_FIQ)  returns 0x2B588090 (0000ms, 3633ms total)
TB77896C0 1795:560 JLINK_ReadReg(SPSR_FIQ)  returns 0x00000010 (0000ms, 3633ms total)
TB77896C0 1795:560 JLINK_ReadReg(R14_FIQ)  returns 0x0E199519 (0000ms, 3633ms total)
TB77896C0 1795:560 JLINK_ReadReg(R13_FIQ)  returns 0x4A002056 (0000ms, 3633ms total)
TB77896C0 1795:560 JLINK_ReadReg(SPSR_SVC)  returns 0x00000010 (0000ms, 3633ms total)
TB77896C0 1795:560 JLINK_ReadReg(R14_SVC)  returns 0xB03FA38A (0000ms, 3633ms total)
TB77896C0 1795:560 JLINK_ReadReg(R13_SVC)  returns 0x22943212 (0000ms, 3633ms total)
TB77896C0 1795:560 JLINK_ReadReg(SPSR_ABT)  returns 0x00000010 (0001ms, 3634ms total)
TB77896C0 1795:561 JLINK_ReadReg(R14_ABT)  returns 0x04D00099 (0000ms, 3634ms total)
TB77896C0 1795:561 JLINK_ReadReg(R13_ABT)  returns 0x1A8B2292 (0000ms, 3634ms total)
TB77896C0 1795:562 JLINK_ReadReg(SPSR_IRQ)  returns 0x00000010 (0000ms, 3635ms total)
TB77896C0 1795:562 JLINK_ReadReg(R14_IRQ)  returns 0x80C000A5 (0000ms, 3635ms total)
TB77896C0 1795:562 JLINK_ReadReg(R13_IRQ)  returns 0x0513D41A (0000ms, 3635ms total)
TB77896C0 1795:562 JLINK_ReadReg(SPSR_UND)  returns 0x00000010 (0000ms, 3635ms total)
TB77896C0 1795:562 JLINK_ReadReg(R14_UND)  returns 0x000000E4 (0000ms, 3635ms total)
TB77896C0 1795:562 JLINK_ReadReg(R13_UND)  returns 0x00000FEC (0000ms, 3635ms total)
TB77896C0 1798:869 JLINK_IsHalted()  returns TRUE (0004ms, 3639ms total)
TB77896C0 1798:873 JLINK_BeginDownload(Flags = 0x00) (0000ms, 3635ms total)
TB77896C0 1798:873 JLINK_WriteMem(0x00000000, 0x0234 Bytes, ...) -- Data:  07 02 A0 E3 13 00 80 E3 92 0F 0F EE 01 DA A0 E3 ... -- CPU_WriteMem(564 bytes @ 0x00000000)  returns 0x234 (0277ms, 3912ms total)
TB77896C0 1799:150 JLINK_EndDownload()  returns 0x00 (0000ms, 3912ms total)
TB77896C0 1801:321 JLINK_IsHalted()  returns TRUE (0004ms, 3916ms total)
TB77896C0 1801:325 JLINK_GetDeviceFamily()  returns 11 (0000ms, 3912ms total)
TB77896C0 1801:325 JLINK_WriteReg(R15 (PC), 0x00000000)  returns 0x00 (0000ms, 3912ms total)
TB77896C0 1802:992 JLINK_GoEx(MaxEmulInsts = 0, Flags = 0x01) (0054ms, 3966ms total)
TB77896C0 1904:000 JLINK_Halt()  returns 0x00 (0103ms, 4069ms total)
TB77896C0 1904:103 JLINK_GetDeviceFamily()  returns 11 (0000ms, 4069ms total)
TB77896C0 1904:103 JLINK_ReadReg(CPSR)  returns 0x6000009B (0003ms, 4072ms total)
TB77896C0 1904:106 JLINK_ReadReg(R15 (PC))  returns 0x0000020C (0000ms, 4072ms total)
TB77896C0 1904:106 JLINK_ReadReg(R7)  returns 0x842209A4 (0000ms, 4072ms total)
TB77896C0 1904:106 JLINK_ReadReg(R6)  returns 0x63826418 (0000ms, 4072ms total)
TB77896C0 1904:106 JLINK_ReadReg(R5)  returns 0xAD0700D0 (0000ms, 4072ms total)
TB77896C0 1904:106 JLINK_ReadReg(R4)  returns 0x7206081C (0000ms, 4072ms total)
TB77896C0 1904:106 JLINK_ReadReg(R3)  returns 0x00000000 (0000ms, 4072ms total)
TB77896C0 1904:106 JLINK_ReadReg(R2)  returns 0xFFFFFFFF (0000ms, 4072ms total)
TB77896C0 1904:106 JLINK_ReadReg(R1)  returns 0x782E4410 (0000ms, 4072ms total)
TB77896C0 1904:106 JLINK_ReadReg(R0)  returns 0x00000010 (0000ms, 4072ms total)
TB77896C0 1904:106 JLINK_ReadReg(R12_USR)  returns 0x8208A052 (0000ms, 4072ms total)
TB77896C0 1904:106 JLINK_ReadReg(R11_USR)  returns 0x00000FEC (0001ms, 4073ms total)
TB77896C0 1904:107 JLINK_ReadReg(R10_USR)  returns 0x54AB8844 (0000ms, 4073ms total)
TB77896C0 1904:107 JLINK_ReadReg(R9_USR)  returns 0xE839B4A8 (0000ms, 4073ms total)
TB77896C0 1904:107 JLINK_ReadReg(R8_USR)  returns 0x7A14721A (0000ms, 4073ms total)
TB77896C0 1904:107 JLINK_ReadReg(R14_USR)  returns 0x98F12301 (0000ms, 4073ms total)
TB77896C0 1904:107 JLINK_ReadReg(R13_USR)  returns 0xC9686820 (0000ms, 4073ms total)
TB77896C0 1904:107 JLINK_ReadReg(R12_FIQ)  returns 0x8BCF0245 (0000ms, 4073ms total)
TB77896C0 1904:107 JLINK_ReadReg(R11_FIQ)  returns 0x34101E64 (0000ms, 4073ms total)
TB77896C0 1904:107 JLINK_ReadReg(R10_FIQ)  returns 0x0A000B47 (0000ms, 4073ms total)
TB77896C0 1904:107 JLINK_ReadReg(R9_FIQ)  returns 0x01B56099 (0000ms, 4073ms total)
TB77896C0 1904:107 JLINK_ReadReg(R8_FIQ)  returns 0x2B588090 (0000ms, 4073ms total)
TB77896C0 1904:107 JLINK_ReadReg(SPSR_FIQ)  returns 0x00000010 (0000ms, 4073ms total)
TB77896C0 1904:107 JLINK_ReadReg(R14_FIQ)  returns 0x0E199519 (0000ms, 4073ms total)
TB77896C0 1904:107 JLINK_ReadReg(R13_FIQ)  returns 0x4A002056 (0000ms, 4073ms total)
TB77896C0 1904:107 JLINK_ReadReg(SPSR_SVC)  returns 0x00000010 (0000ms, 4073ms total)
TB77896C0 1904:107 JLINK_ReadReg(R14_SVC)  returns 0xB03FA38A (0000ms, 4073ms total)
TB77896C0 1904:108 JLINK_ReadReg(R13_SVC)  returns 0x22943212 (0000ms, 4074ms total)
TB77896C0 1904:108 JLINK_ReadReg(SPSR_ABT)  returns 0x00000010 (0000ms, 4074ms total)
TB77896C0 1904:108 JLINK_ReadReg(R14_ABT)  returns 0x04D00099 (0000ms, 4074ms total)
TB77896C0 1904:108 JLINK_ReadReg(R13_ABT)  returns 0x1A8B2292 (0000ms, 4074ms total)
TB77896C0 1904:108 JLINK_ReadReg(SPSR_IRQ)  returns 0x00000010 (0000ms, 4074ms total)
TB77896C0 1904:108 JLINK_ReadReg(R14_IRQ)  returns 0x80C000A5 (0000ms, 4074ms total)
TB77896C0 1904:108 JLINK_ReadReg(R13_IRQ)  returns 0x0513D41A (0000ms, 4074ms total)
TB77896C0 1904:108 JLINK_ReadReg(SPSR_UND)  returns 0x00000010 (0000ms, 4074ms total)
TB77896C0 1904:108 JLINK_ReadReg(R14_UND)  returns 0x000000DC (0000ms, 4074ms total)
TB77896C0 1904:108 JLINK_ReadReg(R13_UND)  returns 0x00000FEC (0000ms, 4074ms total)
TB77896C0 1908:583 JLINK_IsHalted()  returns TRUE (0003ms, 4077ms total)
TB77896C0 1908:586 JLINK_BeginDownload(Flags = 0x00) (0000ms, 4074ms total)
TB77896C0 1908:586 JLINK_WriteMem(0x00000000, 0x0234 Bytes, ...) -- Data:  07 02 A0 E3 13 00 80 E3 92 0F 0F EE 01 DA A0 E3 ... -- CPU_WriteMem(564 bytes @ 0x00000000)  returns 0x234 (0278ms, 4352ms total)
TB77896C0 1908:864 JLINK_EndDownload()  returns 0x00 (0000ms, 4352ms total)
TB77896C0 1912:694 JLINK_IsHalted()  returns TRUE (0003ms, 4355ms total)
TB77896C0 1912:697 JLINK_GetDeviceFamily()  returns 11 (0000ms, 4352ms total)
TB77896C0 1912:697 JLINK_WriteReg(R15 (PC), 0x00000000)  returns 0x00 (0000ms, 4352ms total)
TB77896C0 1914:136 JLINK_GoEx(MaxEmulInsts = 0, Flags = 0x01) (0052ms, 4404ms total)
TB77896C0 1962:016 JLINK_Halt()  returns 0x00 (0102ms, 4506ms total)
TB77896C0 1962:118 JLINK_GetDeviceFamily()  returns 11 (0000ms, 4506ms total)
TB77896C0 1962:118 JLINK_ReadReg(CPSR)  returns 0x6000009B (0001ms, 4507ms total)
TB77896C0 1962:119 JLINK_ReadReg(R15 (PC))  returns 0x00000208 (0000ms, 4507ms total)
TB77896C0 1962:119 JLINK_ReadReg(R7)  returns 0x842209A4 (0000ms, 4507ms total)
TB77896C0 1962:119 JLINK_ReadReg(R6)  returns 0x63826418 (0000ms, 4507ms total)
TB77896C0 1962:119 JLINK_ReadReg(R5)  returns 0xAD0700D0 (0000ms, 4507ms total)
TB77896C0 1962:119 JLINK_ReadReg(R4)  returns 0x7206081C (0000ms, 4507ms total)
TB77896C0 1962:119 JLINK_ReadReg(R3)  returns 0x00000000 (0000ms, 4507ms total)
TB77896C0 1962:119 JLINK_ReadReg(R2)  returns 0xFFFFFFFF (0000ms, 4507ms total)
TB77896C0 1962:119 JLINK_ReadReg(R1)  returns 0x782E4410 (0000ms, 4507ms total)
TB77896C0 1962:119 JLINK_ReadReg(R0)  returns 0x00000001 (0000ms, 4507ms total)
TB77896C0 1962:119 JLINK_ReadReg(R12_USR)  returns 0x8208A052 (0000ms, 4507ms total)
TB77896C0 1962:119 JLINK_ReadReg(R11_USR)  returns 0x00000FEC (0000ms, 4507ms total)
TB77896C0 1962:119 JLINK_ReadReg(R10_USR)  returns 0x54AB8844 (0000ms, 4507ms total)
TB77896C0 1962:120 JLINK_ReadReg(R9_USR)  returns 0xE839B4A8 (0000ms, 4508ms total)
TB77896C0 1962:120 JLINK_ReadReg(R8_USR)  returns 0x7A14721A (0000ms, 4508ms total)
TB77896C0 1962:120 JLINK_ReadReg(R14_USR)  returns 0x98F12301 (0000ms, 4508ms total)
TB77896C0 1962:120 JLINK_ReadReg(R13_USR)  returns 0xC9686820 (0000ms, 4508ms total)
TB77896C0 1962:120 JLINK_ReadReg(R12_FIQ)  returns 0x8BCF0245 (0000ms, 4508ms total)
TB77896C0 1962:120 JLINK_ReadReg(R11_FIQ)  returns 0x34101E64 (0000ms, 4508ms total)
TB77896C0 1962:120 JLINK_ReadReg(R10_FIQ)  returns 0x0A000B47 (0000ms, 4508ms total)
TB77896C0 1962:120 JLINK_ReadReg(R9_FIQ)  returns 0x01B56099 (0000ms, 4508ms total)
TB77896C0 1962:120 JLINK_ReadReg(R8_FIQ)  returns 0x2B588090 (0000ms, 4508ms total)
TB77896C0 1962:120 JLINK_ReadReg(SPSR_FIQ)  returns 0x00000010 (0000ms, 4508ms total)
TB77896C0 1962:120 JLINK_ReadReg(R14_FIQ)  returns 0x0E199519 (0000ms, 4508ms total)
TB77896C0 1962:120 JLINK_ReadReg(R13_FIQ)  returns 0x4A002056 (0000ms, 4508ms total)
TB77896C0 1962:120 JLINK_ReadReg(SPSR_SVC)  returns 0x00000010 (0000ms, 4508ms total)
TB77896C0 1962:120 JLINK_ReadReg(R14_SVC)  returns 0xB03FA38A (0000ms, 4508ms total)
TB77896C0 1962:120 JLINK_ReadReg(R13_SVC)  returns 0x22943212 (0000ms, 4508ms total)
TB77896C0 1962:120 JLINK_ReadReg(SPSR_ABT)  returns 0x00000010 (0000ms, 4508ms total)
TB77896C0 1962:120 JLINK_ReadReg(R14_ABT)  returns 0x04D00099 (0000ms, 4508ms total)
TB77896C0 1962:120 JLINK_ReadReg(R13_ABT)  returns 0x1A8B2292 (0000ms, 4508ms total)
TB77896C0 1962:120 JLINK_ReadReg(SPSR_IRQ)  returns 0x00000010 (0000ms, 4508ms total)
TB77896C0 1962:120 JLINK_ReadReg(R14_IRQ)  returns 0x80C000A5 (0000ms, 4508ms total)
TB77896C0 1962:120 JLINK_ReadReg(R13_IRQ)  returns 0x0513D41A (0000ms, 4508ms total)
TB77896C0 1962:120 JLINK_ReadReg(SPSR_UND)  returns 0x00000010 (0000ms, 4508ms total)
TB77896C0 1962:120 JLINK_ReadReg(R14_UND)  returns 0x000000DC (0000ms, 4508ms total)
TB77896C0 1962:120 JLINK_ReadReg(R13_UND)  returns 0x00000FEC (0000ms, 4508ms total)
TB77896C0 1963:473 JLINK_IsHalted()  returns TRUE (0004ms, 4512ms total)
TB77896C0 1963:477 JLINK_BeginDownload(Flags = 0x00) (0000ms, 4508ms total)
TB77896C0 1963:477 JLINK_WriteMem(0x00000000, 0x0234 Bytes, ...) -- Data:  07 02 A0 E3 13 00 80 E3 92 0F 0F EE 01 DA A0 E3 ... -- CPU_WriteMem(564 bytes @ 0x00000000)  returns 0x234 (0278ms, 4786ms total)
TB77896C0 1963:755 JLINK_EndDownload()  returns 0x00 (0000ms, 4786ms total)
TB77896C0 1966:063 JLINK_IsHalted()  returns TRUE (0003ms, 4789ms total)
TB77896C0 1966:066 JLINK_GetDeviceFamily()  returns 11 (0000ms, 4786ms total)
TB77896C0 1966:066 JLINK_WriteReg(R15 (PC), 0x00000000)  returns 0x00 (0000ms, 4786ms total)
TB77896C0 1966:503 JLINK_GoEx(MaxEmulInsts = 0, Flags = 0x01) (0048ms, 4834ms total)
TB77896C0 2830:915 JLINK_Halt()  returns 0x00 (0112ms, 4946ms total)
TB77896C0 2831:027 JLINK_GetDeviceFamily()  returns 11 (0000ms, 4946ms total)
TB77896C0 2831:027 JLINK_ReadReg(CPSR)  returns 0x6000009B (0002ms, 4948ms total)
TB77896C0 2831:029 JLINK_ReadReg(R15 (PC))  returns 0x000001FC (0000ms, 4948ms total)
TB77896C0 2831:029 JLINK_ReadReg(R7)  returns 0x842209A4 (0000ms, 4948ms total)
TB77896C0 2831:029 JLINK_ReadReg(R6)  returns 0x63826418 (0000ms, 4948ms total)
TB77896C0 2831:029 JLINK_ReadReg(R5)  returns 0xAD0700D0 (0000ms, 4948ms total)
TB77896C0 2831:029 JLINK_ReadReg(R4)  returns 0x7206081C (0000ms, 4948ms total)
TB77896C0 2831:029 JLINK_ReadReg(R3)  returns 0x00000000 (0000ms, 4948ms total)
TB77896C0 2831:029 JLINK_ReadReg(R2)  returns 0xFFFFFFFF (0000ms, 4948ms total)
TB77896C0 2831:029 JLINK_ReadReg(R1)  returns 0x782E4410 (0000ms, 4948ms total)
TB77896C0 2831:029 JLINK_ReadReg(R0)  returns 0x00000003 (0000ms, 4948ms total)
TB77896C0 2831:029 JLINK_ReadReg(R12_USR)  returns 0x8208A052 (0000ms, 4948ms total)
TB77896C0 2831:029 JLINK_ReadReg(R11_USR)  returns 0x00000FEC (0000ms, 4948ms total)
TB77896C0 2831:029 JLINK_ReadReg(R10_USR)  returns 0x54AB8844 (0000ms, 4948ms total)
TB77896C0 2831:029 JLINK_ReadReg(R9_USR)  returns 0xE839B4A8 (0000ms, 4948ms total)
TB77896C0 2831:029 JLINK_ReadReg(R8_USR)  returns 0x7A14721A (0000ms, 4948ms total)
TB77896C0 2831:029 JLINK_ReadReg(R14_USR)  returns 0x98F12301 (0000ms, 4948ms total)
TB77896C0 2831:029 JLINK_ReadReg(R13_USR)  returns 0xC9686820 (0000ms, 4948ms total)
TB77896C0 2831:029 JLINK_ReadReg(R12_FIQ)  returns 0x8BCF0245 (0000ms, 4948ms total)
TB77896C0 2831:029 JLINK_ReadReg(R11_FIQ)  returns 0x34101E64 (0000ms, 4948ms total)
